
T3D88 000:005 SEGGER J-Link V6.16c Log File (0003ms, 0008ms total)
T3D88 000:005 DLL Compiled: Jun 16 2017 18:14:49 (0003ms, 0008ms total)
T3D88 000:005 Logging started @ 2018-04-22 01:18 (0003ms, 0008ms total)
T3D88 000:008 JLINK_SetWarnOutHandler(...) (0000ms, 0008ms total)
T3D88 000:008 JLINK_OpenEx(...)
Firmware: J-Link V9 compiled Dec  2 2017 15:35:20
Hardware: V9.20
S/N: 269200585
Feature(s): GDB, RDI, FlashBP, FlashDL, JFlash, RDDIWEBSRV Webserver running on local port 19080 (0026ms, 0034ms total)
T3D88 000:008   returns O.K. (0026ms, 0034ms total)
T3D88 000:034 JLINK_GetEmuCaps()  returns 0xB9FF7BBF (0000ms, 0034ms total)
T3D88 000:034 JLINK_TIF_GetAvailable(...) (0001ms, 0035ms total)
T3D88 000:035 JLINK_SetErrorOutHandler(...) (0000ms, 0035ms total)
T3D88 000:035 JLINK_ExecCommand("ProjectFile = "E:\Work\TU-Smart\KEA\PRJ\5cm_s\ytom_t\KBITest\PROJECT\JLinkSettings.ini"", ...).   returns 0x00 (0379ms, 0414ms total)
T3D88 000:415 JLINK_ExecCommand("Device = SKEAZ128xxx4", ...). Device "SKEAZ128XXX4" selected.  returns 0x00 (0006ms, 0420ms total)
T3D88 000:421 JLINK_ExecCommand("DisableConnectionTimeout", ...).   returns 0x01 (0000ms, 0420ms total)
T3D88 000:421 JLINK_GetHardwareVersion()  returns 0x16760 (0000ms, 0420ms total)
T3D88 000:422 JLINK_GetDLLVersion()  returns 61603 (0000ms, 0421ms total)
T3D88 000:422 JLINK_GetFirmwareString(...) (0000ms, 0421ms total)
T3D88 000:422 JLINK_GetDLLVersion()  returns 61603 (0000ms, 0421ms total)
T3D88 000:422 JLINK_GetCompileDateTime() (0001ms, 0422ms total)
T3D88 000:423 JLINK_GetFirmwareString(...) (0000ms, 0422ms total)
T3D88 000:423 JLINK_GetHardwareVersion()  returns 0x16760 (0000ms, 0422ms total)
T3D88 000:424 JLINK_TIF_Select(JLINKARM_TIF_SWD)  returns 0x00 (0001ms, 0423ms total)
T3D88 000:425 JLINK_SetSpeed(5000) (0000ms, 0423ms total)
T3D88 000:425 JLINK_GetId()Executing InitTarget() >0x10B TIF> >0x0D TIF> >0x28 TIF> >0x0D TIF> >0x28 TIF> >0x0D TIF> >0x28 TIF> >0x0D TIF> >0x28 TIF> >0x0D TIF> >0x21 TIF> >0x0D TIF> >0x21 TIF> >0x0D TIF> >0x28 TIF> >0x0D TIF> >0x21 TIF> >0x0D TIF> >0x21 TIF> >0x0D TIF> >0x21 TIF> >0x0D TIF> >0x21 TIF> >0x0D TIF> >0x21 TIF> >0x0D TIF> >0x21 TIF> >0x0D TIF> >0x21 TIF> >0x0D TIF> >0x21 TIF> >0x0D TIF> >0x21 TIF> >0x0D TIF> >0x21 TIF> >0x0D TIF> >0x21 TIF> >0x0D TIF> >0x21 TIF> >0x0D TIF> >0x21 TIF>
 >0x0D TIF> >0x21 TIF> >0x0D TIF> >0x21 TIF> >0x0D TIF> >0x21 TIF> >0x0D TIF> >0x21 TIF> >0x0D TIF> >0x21 TIF> >0x0D TIF> >0x21 TIF> >0x0D TIF> >0x21 TIF> >0x0D TIF> >0x21 TIF> >0x0D TIF> >0x21 TIF> >0x0D TIF> >0x21 TIF> >0x0D TIF> >0x21 TIF> >0x0D TIF> >0x21 TIF> >0x0D TIF> >0x21 TIF> >0x0D TIF> >0x21 TIF> >0x0D TIF> >0x21 TIF> >0x0D TIF> >0x21 TIF> >0x0D TIF> >0x21 TIF> >0x0D TIF> >0x21 TIF> >0x0D TIF> >0x21 TIF> >0x0D TIF> >0x21 TIF> >0x0D TIF> >0x21 TIF> >0x0D TIF> >0x21 TIF> >0x0D TIF> >0x21 TIF>
 >0x0D TIF> >0x21 TIF> >0x0D TIF> >0x21 TIF> >0x0D TIF> >0x21 TIF> >0x0D TIF> >0x21 TIF> >0x0D TIF> >0x21 TIF> >0x0D TIF> >0x21 TIF> >0x0D TIF> >0x21 TIF> >0x0D TIF> >0x21 TIF> >0x0D TIF> >0x21 TIF> >0x0D TIF> >0x21 TIF> >0x0D TIF> >0x21 TIF> >0x0D TIF> >0x21 TIF> >0x0D TIF> >0x21 TIF> >0x0D TIF> >0x21 TIF> >0x0D TIF> >0x21 TIF> >0x0D TIF> >0x21 TIF> >0x0D TIF> >0x21 TIF> >0x0D TIF> >0x21 TIF> >0x0D TIF> >0x21 TIF> >0x0D TIF> >0x21 TIF> >0x0D TIF> >0x21 TIF> >0x0D TIF> >0x21 TIF> >0x0D TIF> >0x21 TIF>
 >0x0D TIF> >0x21 TIF> >0x0D TIF> >0x21 TIF> >0x0D TIF> >0x21 TIF> >0x0D TIF> >0x21 TIF> >0x0D TIF> >0x21 TIF> >0x0D TIF> >0x21 TIF> >0x0D TIF> >0x21 TIF> >0x0D TIF> >0x21 TIF> >0x0D TIF> >0x21 TIF> >0x0D TIF> >0x28 TIF> >0x0D TIF> >0x28 TIF> >0x0D TIF> >0x28 TIF> >0x0D TIF> >0x21 TIF> >0x0D TIF> >0x21 TIF> >0x10B TIF>Found SW-DP with ID 0x0BC11477 >0x0D TIF> >0x28 TIF> >0x0D TIF> >0x28 TIF> >0x0D TIF> >0x28 TIF> >0x0D TIF> >0x28 TIF> >0x0D TIF> >0x21 TIF> >0x0D TIF> >0x28 TIF>
Scanning APs, stopping at first AHB-AP found. >0x0D TIF> >0x28 TIF> >0x0D TIF> >0x21 TIF> >0x0D TIF> >0x21 TIF>AP[0] IDR: 0x04770031 (AHB-AP) >0x0D TIF> >0x28 TIF> >0x0D TIF> >0x21 TIF> >0x0D TIF> >0x21 TIF>AHB-AP ROM: 0xF0002000 (Base addr. of first ROM table) >0x0D TIF> >0x28 TIF> >0x0D TIF> >0x28 TIF> >0x0D TIF> >0x28 TIF> >0x0D TIF> >0x21 TIF> >0x0D TIF> >0x21 TIF> >0x0D TIF> >0x28 TIF> >0x0D TIF> >0x21 TIF> >0x0D TIF> >0x21 TIF>CPUID reg: 0x410CC600. Implementer code: 0x41 (ARM)
Found Cortex-M0 r0p0, Little endian. -- CPU_ReadMem(4 bytes @ 0xE000EDF0) -- CPU_WriteMem(4 bytes @ 0xE000EDF0) -- CPU_ReadMem(4 bytes @ 0xE0002000)FPUnit: 2 code (BP) slots and 0 literal slots -- CPU_ReadMem(4 bytes @ 0xE000EDFC) -- CPU_WriteMem(4 bytes @ 0xE000EDFC) -- CPU_ReadMem(4 bytes @ 0xE0001000) -- CPU_WriteMem(4 bytes @ 0xE0001000)CoreSight components:ROMTbl[0] @ F0002000 -- CPU_ReadMem(16 bytes @ 0xF0002000) -- CPU_ReadMem(16 bytes @ 0xE00FFFF0) -- CPU_ReadMem(16 bytes @ 0xE00FFFE0)
ROMTbl[0][0]: E00FF000, CID: B105100D, PID: 000BB4C0 ROM TableROMTbl[1] @ E00FF000 -- CPU_ReadMem(16 bytes @ 0xE00FF000) -- CPU_ReadMem(16 bytes @ 0xE000EFF0) -- CPU_ReadMem(16 bytes @ 0xE000EFE0)ROMTbl[1][0]: E000E000, CID: B105E00D, PID: 000BB008 SCS -- CPU_ReadMem(16 bytes @ 0xE0001FF0) -- CPU_ReadMem(16 bytes @ 0xE0001FE0)ROMTbl[1][1]: E0001000, CID: B105E00D, PID: 000BB00A DWT -- CPU_ReadMem(16 bytes @ 0xE0002FF0) -- CPU_ReadMem(16 bytes @ 0xE0002FE0)
ROMTbl[1][2]: E0002000, CID: B105E00D, PID: 000BB00B FPB >0x0D TIF> >0x21 TIF>  returns 0x0BC11477 (0097ms, 0520ms total)
T3D88 000:522 JLINK_GetDLLVersion()  returns 61603 (0001ms, 0521ms total)
T3D88 000:523 JLINK_CORE_GetFound()  returns 0x60000FF (0000ms, 0521ms total)
T3D88 000:523 JLINK_GetDebugInfo(0x100 = JLINKARM_ROM_TABLE_ADDR_INDEX) -- Value=0xF0002000  returns 0x00 (0000ms, 0521ms total)
T3D88 000:523 JLINK_GetDebugInfo(0x100 = JLINKARM_ROM_TABLE_ADDR_INDEX) -- Value=0xF0002000  returns 0x00 (0000ms, 0521ms total)
T3D88 000:523 JLINK_GetDebugInfo(0x101 = JLINKARM_DEBUG_INFO_ETM_ADDR_INDEX) -- Value=0x00000000  returns 0x00 (0001ms, 0522ms total)
T3D88 000:524 JLINK_ReadMemEx(0xE0041FF0, 0x0010 Bytes, ..., Flags = 0x02000004) -- CPU_ReadMem(16 bytes @ 0xE0041FF0) - Data: 00 00 00 00 00 00 00 00 00 00 00 00 00 00 00 00  returns 0x10 (0001ms, 0523ms total)
T3D88 000:525 JLINK_GetDebugInfo(0x102 = JLINKARM_DEBUG_INFO_MTB_ADDR_INDEX) -- Value=0x00000000  returns 0x00 (0000ms, 0523ms total)
T3D88 000:525 JLINK_GetDebugInfo(0x103 = JLINKARM_DEBUG_INFO_TPIU_ADDR_INDEX) -- Value=0x00000000  returns 0x00 (0000ms, 0523ms total)
T3D88 000:525 JLINK_ReadMemEx(0xE0040FF0, 0x0010 Bytes, ..., Flags = 0x02000004) -- CPU_ReadMem(16 bytes @ 0xE0040FF0) - Data: 00 00 00 00 00 00 00 00 00 00 00 00 00 00 00 00  returns 0x10 (0001ms, 0524ms total)
T3D88 000:526 JLINK_GetDebugInfo(0x104 = JLINKARM_DEBUG_INFO_ITM_ADDR_INDEX) -- Value=0xE0000000  returns 0x00 (0000ms, 0524ms total)
T3D88 000:526 JLINK_GetDebugInfo(0x105 = JLINKARM_DEBUG_INFO_DWT_ADDR_INDEX) -- Value=0xE0001000  returns 0x00 (0001ms, 0525ms total)
T3D88 000:527 JLINK_GetDebugInfo(0x106 = JLINKARM_DEBUG_INFO_FPB_ADDR_INDEX) -- Value=0xE0002000  returns 0x00 (0000ms, 0525ms total)
T3D88 000:527 JLINK_GetDebugInfo(0x107 = JLINKARM_DEBUG_INFO_NVIC_ADDR_INDEX) -- Value=0xE000E000  returns 0x00 (0000ms, 0525ms total)
T3D88 000:527 JLINK_GetDebugInfo(0x10C = JLINKARM_DEBUG_INFO_DBG_ADDR_INDEX) -- Value=0xE000EDF0  returns 0x00 (0000ms, 0525ms total)
T3D88 000:527 JLINK_ReadMemU32(0xE000ED00, 0x0001 Items, ...) -- CPU_ReadMem(4 bytes @ 0xE000ED00) - Data: 00 C6 0C 41  returns 0x01 (0001ms, 0526ms total)
T3D88 000:528 JLINK_GetDebugInfo(0x10F = JLINKARM_DEBUG_INFO_HAS_CORTEX_M_SECURITY_EXT_INDEX) -- Value=0x00000000  returns 0x00 (0000ms, 0526ms total)
T3D88 000:529 JLINK_SetResetType(JLINKARM_CM3_RESET_TYPE_NORMAL)  returns JLINKARM_CM3_RESET_TYPE_NORMAL (0000ms, 0527ms total)
T3D88 000:529 JLINK_Reset()Executing ResetTarget() -- CPU_ReadMem(4 bytes @ 0xE000EDFC) -- CPU_WriteMem(4 bytes @ 0xE000EDFC) -- CPU_WriteMem(4 bytes @ 0xE000ED0C) -- CPU_ReadMem(4 bytes @ 0xE000EDF0) -- CPU_ReadMem(4 bytes @ 0xE000EDF0) -- CPU_WriteMem(4 bytes @ 0xE000EDFC)Executing AfterResetTarget() >0x0D TIF> >0x28 TIF> >0x0D TIF> >0x28 TIF> >0x0D TIF> >0x28 TIF> >0x0D TIF> >0x28 TIF> >0x0D TIF> >0x28 TIF> >0x0D TIF> >0x21 TIF> >0x0D TIF> >0x21 TIF> >0x0D TIF> >0x28 TIF> >0x0D TIF> >0x28 TIF>
 >0x0D TIF> >0x21 TIF> >0x0D TIF> >0x21 TIF> >0x0D TIF> >0x28 TIF> >0x0D TIF> >0x28 TIF> >0x0D TIF> >0x28 TIF> >0x0D TIF> >0x28 TIF> >0x0D TIF> >0x28 TIF> >0x0D TIF> >0x28 TIF> >0x0D TIF> >0x28 TIF> >0x0D TIF> >0x28 TIF> >0x0D TIF> >0x28 TIF> >0x0D TIF> >0x28 TIF> >0x0D TIF> >0x28 TIF> >0x0D TIF> >0x28 TIF> -- CPU_WriteMem(4 bytes @ 0xE0002000) -- CPU_ReadMem(4 bytes @ 0xE000EDFC) -- CPU_ReadMem(4 bytes @ 0xE0001000) -- CPU_WriteMem(4 bytes @ 0xE0001000) (0030ms, 0557ms total)
T3D88 000:559 JLINK_ReadReg(R15 (PC))  returns 0x00000166 (0000ms, 0557ms total)
T3D88 000:559 JLINK_ReadReg(XPSR)  returns 0x21000000 (0001ms, 0558ms total)
T3D88 000:560 JLINK_Halt()  returns 0x00 (0000ms, 0558ms total)
T3D88 000:560 JLINK_ReadMemU32(0xE000EDF0, 0x0001 Items, ...) -- CPU_ReadMem(4 bytes @ 0xE000EDF0) - Data: 03 00 03 00  returns 0x01 (0001ms, 0559ms total)
T3D88 000:561 JLINK_WriteU32(0xE000EDF0, 0xA05F0003) -- CPU_WriteMem(4 bytes @ 0xE000EDF0)  returns 0x00 (0000ms, 0559ms total)
T3D88 000:562 JLINK_WriteU32(0xE000EDFC, 0x01000000) -- CPU_WriteMem(4 bytes @ 0xE000EDFC)  returns 0x00 (0000ms, 0560ms total)
T3D88 000:563 JLINK_GetHWStatus(...)  returns 0x00 (0000ms, 0560ms total)
T3D88 000:563 JLINK_GetNumBPUnits(Type = 0xFFFFFF00)  returns 0x02 (0000ms, 0560ms total)
T3D88 000:563 JLINK_GetNumBPUnits(Type = 0xF0)  returns 0x2000 (0000ms, 0560ms total)
T3D88 000:564 JLINK_GetNumWPUnits()  returns 0x02 (0000ms, 0561ms total)
T3D88 000:564 JLINK_GetSpeed()  returns 0xFA0 (0000ms, 0561ms total)
T3D88 000:564 JLINK_ReadMemU32(0xE000E004, 0x0001 Items, ...) -- CPU_ReadMem(4 bytes @ 0xE000E004) - Data: 00 00 00 00  returns 0x01 (0001ms, 0562ms total)
T3D88 000:565 JLINK_ReadReg(R15 (PC))  returns 0x00000166 (0000ms, 0562ms total)
T3D88 000:565 JLINK_ReadReg(XPSR)  returns 0x21000000 (0000ms, 0562ms total)
T3D88 000:692 JLINK_SetResetType(JLINKARM_CM3_RESET_TYPE_NORMAL)  returns JLINKARM_CM3_RESET_TYPE_NORMAL (0001ms, 0563ms total)
T3D88 000:693 JLINK_Reset()Executing ResetTarget() -- CPU_ReadMem(4 bytes @ 0xE000EDFC) -- CPU_WriteMem(4 bytes @ 0xE000EDFC) -- CPU_WriteMem(4 bytes @ 0xE000ED0C) -- CPU_ReadMem(4 bytes @ 0xE000EDF0) -- CPU_ReadMem(4 bytes @ 0xE000EDF0) -- CPU_WriteMem(4 bytes @ 0xE000EDFC)Executing AfterResetTarget() >0x0D TIF> >0x28 TIF> >0x0D TIF> >0x28 TIF> >0x0D TIF> >0x28 TIF> >0x0D TIF> >0x28 TIF> >0x0D TIF> >0x28 TIF> >0x0D TIF> >0x21 TIF> >0x0D TIF> >0x21 TIF> >0x0D TIF> >0x28 TIF> >0x0D TIF> >0x28 TIF>
 >0x0D TIF> >0x21 TIF> >0x0D TIF> >0x21 TIF> >0x0D TIF> >0x28 TIF> >0x0D TIF> >0x28 TIF> >0x0D TIF> >0x28 TIF> >0x0D TIF> >0x28 TIF> >0x0D TIF> >0x28 TIF> >0x0D TIF> >0x28 TIF> >0x0D TIF> >0x28 TIF> >0x0D TIF> >0x28 TIF> >0x0D TIF> >0x28 TIF> >0x0D TIF> >0x28 TIF> >0x0D TIF> >0x28 TIF> >0x0D TIF> >0x28 TIF> -- CPU_WriteMem(4 bytes @ 0xE0002000) -- CPU_ReadMem(4 bytes @ 0xE000EDFC) -- CPU_ReadMem(4 bytes @ 0xE0001000) -- CPU_WriteMem(4 bytes @ 0xE0001000) (0025ms, 0588ms total)
T3D88 000:718 JLINK_ReadReg(R15 (PC))  returns 0x00000166 (0000ms, 0588ms total)
T3D88 000:718 JLINK_ReadReg(XPSR)  returns 0x21000000 (0001ms, 0589ms total)
T3D88 000:720 JLINK_ReadMemEx(0x00000164, 0x003C Bytes, ..., Flags = 0x02000000) -- CPU_ReadMem(128 bytes @ 0x00000140) -- Updating C cache (128 bytes @ 0x00000140) -- Read from C cache (60 bytes @ 0x00000164) - Data: 70 47 09 48 80 47 09 48 80 47 09 48 00 47 FE E7 ...  returns 0x3C (0002ms, 0591ms total)
T3D88 001:347 JLINK_ReadMemEx(0x40038000, 0x000C Bytes, ..., Flags = 0x02000004) -- CPU_ReadMem(12 bytes @ 0x40038000) - Data: AA AA AA AA AA AA AA AA AA AA AA AA  returns 0xFFFFFFFF (0001ms, 0592ms total)
T3D88 001:349 JLINK_ReadMemEx(0x40038004, 0x0008 Bytes, ..., Flags = 0x02000004) -- CPU_ReadMem(8 bytes @ 0x40038004) - Data: AA AA AA AA AA AA AA AA  returns 0xFFFFFFFF (0000ms, 0593ms total)
T3D88 001:349 JLINK_ReadMemEx(0x4003800C, 0x0004 Bytes, ..., Flags = 0x02000004) -- CPU_ReadMem(4 bytes @ 0x4003800C) - Data: AA AA AA AA  returns 0xFFFFFFFF (0002ms, 0595ms total)
T3D88 001:351 JLINK_ReadMemEx(0x40038010, 0x0004 Bytes, ..., Flags = 0x02000004) -- CPU_ReadMem(4 bytes @ 0x40038010) - Data: AA AA AA AA  returns 0xFFFFFFFF (0001ms, 0596ms total)
T3D88 001:352 JLINK_ReadMemEx(0x40038014, 0x0004 Bytes, ..., Flags = 0x02000004) -- CPU_ReadMem(4 bytes @ 0x40038014) - Data: AA AA AA AA  returns 0xFFFFFFFF (0001ms, 0597ms total)
T3D88 001:353 JLINK_ReadMemEx(0x40038018, 0x0004 Bytes, ..., Flags = 0x02000004) -- CPU_ReadMem(4 bytes @ 0x40038018) - Data: AA AA AA AA  returns 0xFFFFFFFF (0001ms, 0598ms total)
T3D88 001:354 JLINK_ReadMemEx(0x4003806C, 0x0004 Bytes, ..., Flags = 0x02000004) -- CPU_ReadMem(4 bytes @ 0x4003806C) - Data: AA AA AA AA  returns 0xFFFFFFFF (0001ms, 0599ms total)
T3D88 001:576 JLINK_ReadMemEx(0x4003A000, 0x000C Bytes, ..., Flags = 0x02000004) -- CPU_ReadMem(12 bytes @ 0x4003A000) - Data: AA AA AA AA AA AA AA AA AA AA AA AA  returns 0xFFFFFFFF (0001ms, 0600ms total)
T3D88 001:577 JLINK_ReadMemEx(0x4003A004, 0x0008 Bytes, ..., Flags = 0x02000004) -- CPU_ReadMem(8 bytes @ 0x4003A004) - Data: AA AA AA AA AA AA AA AA  returns 0xFFFFFFFF (0001ms, 0601ms total)
T3D88 001:578 JLINK_ReadMemEx(0x4003A00C, 0x0004 Bytes, ..., Flags = 0x02000004) -- CPU_ReadMem(4 bytes @ 0x4003A00C) - Data: AA AA AA AA  returns 0xFFFFFFFF (0001ms, 0602ms total)
T3D88 001:579 JLINK_ReadMemEx(0x4003A010, 0x0004 Bytes, ..., Flags = 0x02000004) -- CPU_ReadMem(4 bytes @ 0x4003A010) - Data: AA AA AA AA  returns 0xFFFFFFFF (0001ms, 0603ms total)
T3D88 001:580 JLINK_ReadMemEx(0x4003A014, 0x0004 Bytes, ..., Flags = 0x02000004) -- CPU_ReadMem(4 bytes @ 0x4003A014) - Data: AA AA AA AA  returns 0xFFFFFFFF (0001ms, 0604ms total)
T3D88 001:581 JLINK_ReadMemEx(0x4003A018, 0x0004 Bytes, ..., Flags = 0x02000004) -- CPU_ReadMem(4 bytes @ 0x4003A018) - Data: AA AA AA AA  returns 0xFFFFFFFF (0001ms, 0605ms total)
T3D88 001:582 JLINK_ReadMemEx(0x4003A01C, 0x0004 Bytes, ..., Flags = 0x02000004) -- CPU_ReadMem(4 bytes @ 0x4003A01C) - Data: AA AA AA AA  returns 0xFFFFFFFF (0001ms, 0606ms total)
T3D88 001:583 JLINK_ReadMemEx(0x4003A020, 0x0004 Bytes, ..., Flags = 0x02000004) -- CPU_ReadMem(4 bytes @ 0x4003A020) - Data: AA AA AA AA  returns 0xFFFFFFFF (0000ms, 0606ms total)
T3D88 001:584 JLINK_ReadMemEx(0x4003A024, 0x0004 Bytes, ..., Flags = 0x02000004) -- CPU_ReadMem(4 bytes @ 0x4003A024) - Data: AA AA AA AA  returns 0xFFFFFFFF (0000ms, 0607ms total)
T3D88 001:584 JLINK_ReadMemEx(0x4003A028, 0x0004 Bytes, ..., Flags = 0x02000004) -- CPU_ReadMem(4 bytes @ 0x4003A028) - Data: AA AA AA AA  returns 0xFFFFFFFF (0001ms, 0608ms total)
T3D88 001:585 JLINK_ReadMemEx(0x4003A02C, 0x0004 Bytes, ..., Flags = 0x02000004) -- CPU_ReadMem(4 bytes @ 0x4003A02C) - Data: AA AA AA AA  returns 0xFFFFFFFF (0001ms, 0609ms total)
T3D88 001:587 JLINK_ReadMemEx(0x4003A030, 0x0004 Bytes, ..., Flags = 0x02000004) -- CPU_ReadMem(4 bytes @ 0x4003A030) - Data: AA AA AA AA  returns 0xFFFFFFFF (0001ms, 0611ms total)
T3D88 001:588 JLINK_ReadMemEx(0x4003A034, 0x0004 Bytes, ..., Flags = 0x02000004) -- CPU_ReadMem(4 bytes @ 0x4003A034) - Data: AA AA AA AA  returns 0xFFFFFFFF (0001ms, 0612ms total)
T3D88 001:589 JLINK_ReadMemEx(0x4003A038, 0x0004 Bytes, ..., Flags = 0x02000004) -- CPU_ReadMem(4 bytes @ 0x4003A038) - Data: AA AA AA AA  returns 0xFFFFFFFF (0001ms, 0613ms total)
T3D88 001:590 JLINK_ReadMemEx(0x4003A04C, 0x0030 Bytes, ..., Flags = 0x02000004) -- CPU_ReadMem(48 bytes @ 0x4003A04C) - Data: AA AA AA AA AA AA AA AA AA AA AA AA AA AA AA AA ...  returns 0xFFFFFFFF (0001ms, 0614ms total)
T3D88 001:591 JLINK_ReadMemEx(0x4003A050, 0x002C Bytes, ..., Flags = 0x02000004) -- CPU_ReadMem(44 bytes @ 0x4003A050) - Data: AA AA AA AA AA AA AA AA AA AA AA AA AA AA AA AA ...  returns 0xFFFFFFFF (0001ms, 0615ms total)
T3D88 001:592 JLINK_ReadMemEx(0x4003A054, 0x0028 Bytes, ..., Flags = 0x02000004) -- CPU_ReadMem(40 bytes @ 0x4003A054) - Data: AA AA AA AA AA AA AA AA AA AA AA AA AA AA AA AA ...  returns 0xFFFFFFFF (0001ms, 0616ms total)
T3D88 001:593 JLINK_ReadMemEx(0x4003A058, 0x0024 Bytes, ..., Flags = 0x02000004) -- CPU_ReadMem(36 bytes @ 0x4003A058) - Data: AA AA AA AA AA AA AA AA AA AA AA AA AA AA AA AA ...  returns 0xFFFFFFFF (0001ms, 0617ms total)
T3D88 001:595 JLINK_ReadMemEx(0x4003A05C, 0x0020 Bytes, ..., Flags = 0x02000004) -- CPU_ReadMem(32 bytes @ 0x4003A05C) - Data: AA AA AA AA AA AA AA AA AA AA AA AA AA AA AA AA ...  returns 0xFFFFFFFF (0000ms, 0617ms total)
T3D88 001:596 JLINK_ReadMemEx(0x4003A060, 0x001C Bytes, ..., Flags = 0x02000004) -- CPU_ReadMem(28 bytes @ 0x4003A060) - Data: AA AA AA AA AA AA AA AA AA AA AA AA AA AA AA AA ...  returns 0xFFFFFFFF (0001ms, 0618ms total)
T3D88 001:597 JLINK_ReadMemEx(0x4003A064, 0x0018 Bytes, ..., Flags = 0x02000004) -- CPU_ReadMem(24 bytes @ 0x4003A064) - Data: AA AA AA AA AA AA AA AA AA AA AA AA AA AA AA AA ...  returns 0xFFFFFFFF (0001ms, 0619ms total)
T3D88 001:598 JLINK_ReadMemEx(0x4003A07C, 0x0004 Bytes, ..., Flags = 0x02000004) -- CPU_ReadMem(4 bytes @ 0x4003A07C) - Data: AA AA AA AA  returns 0xFFFFFFFF (0001ms, 0620ms total)
T3D88 001:599 JLINK_ReadMemEx(0x4003A084, 0x0014 Bytes, ..., Flags = 0x02000004) -- CPU_ReadMem(20 bytes @ 0x4003A084) - Data: AA AA AA AA AA AA AA AA AA AA AA AA AA AA AA AA ...  returns 0xFFFFFFFF (0001ms, 0621ms total)
T3D88 001:600 JLINK_ReadMemEx(0x4003A088, 0x0010 Bytes, ..., Flags = 0x02000004) -- CPU_ReadMem(16 bytes @ 0x4003A088) - Data: AA AA AA AA AA AA AA AA AA AA AA AA AA AA AA AA  returns 0xFFFFFFFF (0001ms, 0622ms total)
T3D88 001:601 JLINK_ReadMemEx(0x4003A08C, 0x000C Bytes, ..., Flags = 0x02000004) -- CPU_ReadMem(12 bytes @ 0x4003A08C) - Data: AA AA AA AA AA AA AA AA AA AA AA AA  returns 0xFFFFFFFF (0001ms, 0623ms total)
T3D88 001:602 JLINK_ReadMemEx(0x4003A098, 0x0004 Bytes, ..., Flags = 0x02000004) -- CPU_ReadMem(4 bytes @ 0x4003A098) - Data: AA AA AA AA  returns 0xFFFFFFFF (0001ms, 0624ms total)
T3D88 001:839 JLINK_ReadMemEx(0x40037000, 0x0004 Bytes, ..., Flags = 0x02000004) -- CPU_ReadMem(4 bytes @ 0x40037000) - Data: AA AA AA AA  returns 0xFFFFFFFF (0001ms, 0625ms total)
T3D88 001:840 JLINK_ReadMemEx(0x40037100, 0x0004 Bytes, ..., Flags = 0x02000004) -- CPU_ReadMem(4 bytes @ 0x40037100) - Data: AA AA AA AA  returns 0xFFFFFFFF (0001ms, 0626ms total)
T3D88 001:841 JLINK_ReadMemEx(0x40037104, 0x0004 Bytes, ..., Flags = 0x02000004) -- CPU_ReadMem(4 bytes @ 0x40037104) - Data: AA AA AA AA  returns 0xFFFFFFFF (0001ms, 0627ms total)
T3D88 001:842 JLINK_ReadMemEx(0x40037108, 0x0004 Bytes, ..., Flags = 0x02000004) -- CPU_ReadMem(4 bytes @ 0x40037108) - Data: AA AA AA AA  returns 0xFFFFFFFF (0001ms, 0628ms total)
T3D88 001:843 JLINK_ReadMemEx(0x4003710C, 0x0004 Bytes, ..., Flags = 0x02000004) -- CPU_ReadMem(4 bytes @ 0x4003710C) - Data: AA AA AA AA  returns 0xFFFFFFFF (0001ms, 0629ms total)
T3D88 001:844 JLINK_ReadMemEx(0x40037110, 0x0004 Bytes, ..., Flags = 0x02000004) -- CPU_ReadMem(4 bytes @ 0x40037110) - Data: AA AA AA AA  returns 0xFFFFFFFF (0001ms, 0630ms total)
T3D88 001:845 JLINK_ReadMemEx(0x40037114, 0x0004 Bytes, ..., Flags = 0x02000004) -- CPU_ReadMem(4 bytes @ 0x40037114) - Data: AA AA AA AA  returns 0xFFFFFFFF (0001ms, 0631ms total)
T3D88 001:846 JLINK_ReadMemEx(0x40037118, 0x0004 Bytes, ..., Flags = 0x02000004) -- CPU_ReadMem(4 bytes @ 0x40037118) - Data: AA AA AA AA  returns 0xFFFFFFFF (0001ms, 0632ms total)
T3D88 001:847 JLINK_ReadMemEx(0x4003711C, 0x0004 Bytes, ..., Flags = 0x02000004) -- CPU_ReadMem(4 bytes @ 0x4003711C) - Data: AA AA AA AA  returns 0xFFFFFFFF (0001ms, 0633ms total)
T3D88 002:065 JLINK_ReadMemEx(0x40048000, 0x0024 Bytes, ..., Flags = 0x02000004) -- CPU_ReadMem(36 bytes @ 0x40048000) - Data: 00 04 28 06 0E 00 00 00 00 00 00 00 00 00 00 00 ...  returns 0x24 (0001ms, 0634ms total)
T3D88 002:066 JLINK_ReadMemEx(0x40048004, 0x0020 Bytes, ..., Flags = 0x02000004) -- CPU_ReadMem(32 bytes @ 0x40048004) - Data: 0E 00 00 00 00 00 00 00 00 00 00 00 00 00 00 00 ...  returns 0x20 (0001ms, 0635ms total)
T3D88 002:067 JLINK_ReadMemEx(0x40048008, 0x001C Bytes, ..., Flags = 0x02000004) -- CPU_ReadMem(28 bytes @ 0x40048008) - Data: 00 00 00 00 00 00 00 00 00 00 00 00 00 30 00 00 ...  returns 0x1C (0001ms, 0636ms total)
T3D88 002:068 JLINK_ReadMemEx(0x4004800C, 0x0018 Bytes, ..., Flags = 0x02000004) -- CPU_ReadMem(24 bytes @ 0x4004800C) - Data: 00 00 00 00 00 00 00 00 00 30 00 00 33 45 37 39 ...  returns 0x18 (0001ms, 0637ms total)
T3D88 002:069 JLINK_ReadMemEx(0x40048010, 0x0014 Bytes, ..., Flags = 0x02000004) -- CPU_ReadMem(20 bytes @ 0x40048010) - Data: 00 00 00 00 00 30 00 00 33 45 37 39 16 08 2E 00 ...  returns 0x14 (0001ms, 0638ms total)
T3D88 002:070 JLINK_ReadMemEx(0x40048024, 0x0004 Bytes, ..., Flags = 0x02000004) -- CPU_ReadMem(4 bytes @ 0x40048024) - Data: 00 00 10 01  returns 0x04 (0001ms, 0639ms total)
T3D88 006:631 JLINK_ReadReg(R0)  returns 0x02DC6C00 (0000ms, 0639ms total)
T3D88 006:631 JLINK_ReadReg(R1)  returns 0x000003E8 (0001ms, 0640ms total)
T3D88 006:632 JLINK_ReadReg(R2)  returns 0x00000000 (0000ms, 0640ms total)
T3D88 006:632 JLINK_ReadReg(R3)  returns 0x0002DC6C (0000ms, 0640ms total)
T3D88 006:632 JLINK_ReadReg(R4)  returns 0x000000C8 (0000ms, 0640ms total)
T3D88 006:632 JLINK_ReadReg(R5)  returns 0x00000106 (0000ms, 0640ms total)
T3D88 006:633 JLINK_ReadReg(R6)  returns 0x1FFFF04A (0000ms, 0641ms total)
T3D88 006:633 JLINK_ReadReg(R7)  returns 0x00000006 (0000ms, 0641ms total)
T3D88 006:633 JLINK_ReadReg(R8)  returns 0x00000000 (0000ms, 0641ms total)
T3D88 006:633 JLINK_ReadReg(R9)  returns 0x1FFFF1A8 (0000ms, 0641ms total)
T3D88 006:633 JLINK_ReadReg(R10)  returns 0x00005058 (0000ms, 0641ms total)
T3D88 006:634 JLINK_ReadReg(R11)  returns 0x00005058 (0000ms, 0642ms total)
T3D88 006:634 JLINK_ReadReg(R12)  returns 0x00000000 (0000ms, 0642ms total)
T3D88 006:634 JLINK_ReadReg(R13 (SP))  returns 0x1FFFF4B0 (0000ms, 0642ms total)
T3D88 006:634 JLINK_ReadReg(R14)  returns 0x00003049 (0000ms, 0642ms total)
T3D88 006:635 JLINK_ReadReg(R15 (PC))  returns 0x00000166 (0000ms, 0643ms total)
T3D88 006:635 JLINK_ReadReg(XPSR)  returns 0x21000000 (0000ms, 0643ms total)
T3D88 006:635 JLINK_ReadReg(MSP)  returns 0x1FFFF4B0 (0000ms, 0643ms total)
T3D88 006:635 JLINK_ReadReg(PSP)  returns 0x20000000 (0000ms, 0643ms total)
T3D88 006:635 JLINK_ReadReg(CFBP)  returns 0x00000000 (0000ms, 0643ms total)
T3D88 006:655 JLINK_ReadMemEx(0x1FFFF01B, 0x0008 Bytes, ..., Flags = 0x02000000) -- CPU_ReadMem(64 bytes @ 0x1FFFF000) -- Updating C cache (64 bytes @ 0x1FFFF000) -- Read from C cache (8 bytes @ 0x1FFFF01B) - Data: 0D 0E 0F FF FF FF FF FF  returns 0x08 (0001ms, 0644ms total)
T3D88 006:664 JLINK_ReadMemEx(0x1FFFF049, 0x0001 Bytes, ..., Flags = 0x02000000) -- CPU_ReadMem(64 bytes @ 0x1FFFF040) -- Updating C cache (64 bytes @ 0x1FFFF040) -- Read from C cache (1 bytes @ 0x1FFFF049) - Data: 0A  returns 0x01 (0001ms, 0645ms total)
T3B18 007:097 JLINK_ReadMemEx(0x00000166, 0x0002 Bytes, ..., Flags = 0x02000000) -- Read from C cache (2 bytes @ 0x00000166) - Data: 09 48  returns 0x02 (0000ms, 0645ms total)
T3B18 007:097 JLINK_SetBPEx(Addr = 0x00003ED0, Type = 0xFFFFFFF2)  returns 0x00000001 (0000ms, 0645ms total)
T3B18 007:097 JLINK_SetBPEx(Addr = 0x00001C7C, Type = 0xFFFFFFF2)  returns 0x00000002 (0000ms, 0645ms total)
T3B18 007:097 JLINK_SetBPEx(Addr = 0x00001CE8, Type = 0xFFFFFFF2) -- BP[0] @ 0x00003ED0 converted into FlashBP  returns 0x00000003 (0001ms, 0646ms total)
T3B18 007:098 JLINK_SetBPEx(Addr = 0x00003FDE, Type = 0xFFFFFFF2) -- BP[1] @ 0x00001C7C converted into FlashBP  returns 0x00000004 (0000ms, 0646ms total)
T3B18 007:098 JLINK_Go() -- Read from C cache (2 bytes @ 0x00000166) -- CPU_ReadMem(4 bytes @ 0xE000ED18) -- CPU_WriteMem(4 bytes @ 0xE000ED18) -- CPU_ReadMem(4 bytes @ 0xE000ED18) -- CPU_WriteMem(4 bytes @ 0xE000ED18) -- Read from C cache (4 bytes @ 0x0000018C) -- Simulated -- Read from C cache (2 bytes @ 0x00000168) -- Simulated -- CPU_ReadMem(64 bytes @ 0x000027C0) -- Updating C cache (64 bytes @ 0x000027C0) -- Read from C cache (2 bytes @ 0x000027EC) -- CPU_ReadMem(64 bytes @ 0x00002800)
 -- Updating C cache (64 bytes @ 0x00002800) -- Read from C cache (4 bytes @ 0x0000283C) -- Simulated -- Read from C cache (2 bytes @ 0x000027EE) -- CPU_ReadMem(64 bytes @ 0x00002840) -- Updating C cache (64 bytes @ 0x00002840) -- Read from C cache (4 bytes @ 0x00002840) -- Simulated -- Read from C cache (2 bytes @ 0x000027F0) -- Not simulated -- Start of preparing flash programming -- Calculating RAM usage -- RAM usage = 5136 Bytes -- Preserving CPU registers -- Preparing memory
 -- Determining CPU clock frequency -- CPU frequency = 24022 kHz -- CPU frequency = 24022 kHz -- Preparing target -- Preserving target RAM temporarily used for programming -- Downloading RAMCode -- Checking target RAM & preparing RAMCode -- End of preparing flash programming -- CPU_ReadMem(512 bytes @ 0x00003E00) -- Updating C cache (512 bytes @ 0x00003E00) -- Read from C cache (512 bytes @ 0x00003E00) -- Updating flash cache (512 bytes @ 0x00003E00)
 -- Programming range 0x00003E00 - 0x00003FFF (001 Sector, 512 Bytes) -- CPU_ReadMem(512 bytes @ 0x00001C00) -- Updating C cache (512 bytes @ 0x00001C00) -- Read from C cache (512 bytes @ 0x00001C00) -- Updating flash cache (512 bytes @ 0x00001C00) -- Programming range 0x00001C00 - 0x00001DFF (001 Sector, 512 Bytes) -- Start of restoring -- Restoring RAMCode -- Restoring target memory -- Restore target -- Restore memory -- Restoring CPU registers -- End of restoring -- CPU_WriteMem(4 bytes @ 0xE0002000)
 -- CPU_WriteMem(4 bytes @ 0xE0002000) -- CPU_ReadMem(4 bytes @ 0xE0001000) -- CPU_WriteMem(4 bytes @ 0xE0001000) -- CPU_WriteMem(4 bytes @ 0xE0002008) -- CPU_WriteMem(4 bytes @ 0xE000200C) (0238ms, 0884ms total)
T3B18 007:437 JLINK_IsHalted()  returns TRUE (0003ms, 0888ms total)
T3B18 007:440 JLINK_Halt()  returns 0x00 (0000ms, 0885ms total)
T3B18 007:440 JLINK_IsHalted()  returns TRUE (0001ms, 0886ms total)
T3B18 007:441 JLINK_IsHalted()  returns TRUE (0000ms, 0885ms total)
T3B18 007:441 JLINK_IsHalted()  returns TRUE (0001ms, 0886ms total)
T3B18 007:442 JLINK_ReadReg(R15 (PC))  returns 0x00003ED0 (0000ms, 0885ms total)
T3B18 007:442 JLINK_ReadReg(XPSR)  returns 0x01000000 (0000ms, 0885ms total)
T3B18 007:443 JLINK_ClrBPEx(BPHandle = 0x00000001)  returns 0x00 (0000ms, 0885ms total)
T3B18 007:443 JLINK_ClrBPEx(BPHandle = 0x00000002)  returns 0x00 (0000ms, 0885ms total)
T3B18 007:444 JLINK_ClrBPEx(BPHandle = 0x00000003)  returns 0x00 (0000ms, 0885ms total)
T3B18 007:444 JLINK_ClrBPEx(BPHandle = 0x00000004)  returns 0x00 (0000ms, 0885ms total)
T3B18 007:444 JLINK_ReadMemU32(0xE000ED30, 0x0001 Items, ...) -- CPU_ReadMem(4 bytes @ 0xE000ED30) - Data: 03 00 00 00  returns 0x01 (0001ms, 0886ms total)
T3B18 007:446 JLINK_ReadMemU32(0xE0001028, 0x0001 Items, ...) -- CPU_ReadMem(4 bytes @ 0xE0001028) - Data: 00 00 00 00  returns 0x01 (0001ms, 0887ms total)
T3B18 007:447 JLINK_ReadMemU32(0xE0001038, 0x0001 Items, ...) -- CPU_ReadMem(4 bytes @ 0xE0001038) - Data: 00 00 00 00  returns 0x01 (0001ms, 0888ms total)
T3B18 007:448 JLINK_ReadReg(R0)  returns 0x1FFFF2B0 (0000ms, 0888ms total)
T3B18 007:448 JLINK_ReadReg(R1)  returns 0x1FFFF2B0 (0001ms, 0889ms total)
T3B18 007:449 JLINK_ReadReg(R2)  returns 0x1FFFF2B0 (0000ms, 0889ms total)
T3B18 007:449 JLINK_ReadReg(R3)  returns 0x1FFFF2B0 (0000ms, 0889ms total)
T3B18 007:449 JLINK_ReadReg(R4)  returns 0x00005058 (0001ms, 0890ms total)
T3B18 007:450 JLINK_ReadReg(R5)  returns 0x1FFFF24C (0000ms, 0890ms total)
T3B18 007:450 JLINK_ReadReg(R6)  returns 0x00000000 (0000ms, 0890ms total)
T3B18 007:450 JLINK_ReadReg(R7)  returns 0x00000000 (0001ms, 0891ms total)
T3B18 007:451 JLINK_ReadReg(R8)  returns 0x00000000 (0000ms, 0891ms total)
T3B18 007:451 JLINK_ReadReg(R9)  returns 0x1FFFF1A8 (0000ms, 0891ms total)
T3B18 007:452 JLINK_ReadReg(R10)  returns 0x00005058 (0000ms, 0892ms total)
T3B18 007:452 JLINK_ReadReg(R11)  returns 0x00005058 (0000ms, 0892ms total)
T3B18 007:452 JLINK_ReadReg(R12)  returns 0x00000000 (0001ms, 0893ms total)
T3B18 007:453 JLINK_ReadReg(R13 (SP))  returns 0x1FFFF4B0 (0000ms, 0893ms total)
T3B18 007:453 JLINK_ReadReg(R14)  returns 0x00000153 (0000ms, 0893ms total)
T3B18 007:453 JLINK_ReadReg(R15 (PC))  returns 0x00003ED0 (0001ms, 0894ms total)
T3B18 007:454 JLINK_ReadReg(XPSR)  returns 0x01000000 (0000ms, 0894ms total)
T3B18 007:454 JLINK_ReadReg(MSP)  returns 0x1FFFF4B0 (0001ms, 0895ms total)
T3B18 007:455 JLINK_ReadReg(PSP)  returns 0x20000000 (0001ms, 0896ms total)
T3B18 007:456 JLINK_ReadReg(CFBP)  returns 0x00000000 (0000ms, 0896ms total)
T3D88 007:487 JLINK_ReadMemEx(0x1FFFF01B, 0x0008 Bytes, ..., Flags = 0x02000000) -- CPU_ReadMem(64 bytes @ 0x1FFFF000) -- Updating C cache (64 bytes @ 0x1FFFF000) -- Read from C cache (8 bytes @ 0x1FFFF01B) - Data: FF 00 00 00 00 00 00 00  returns 0x08 (0001ms, 0897ms total)
T3D88 007:497 JLINK_ReadMemEx(0x1FFFF049, 0x0001 Bytes, ..., Flags = 0x02000000) -- CPU_ReadMem(64 bytes @ 0x1FFFF040) -- Updating C cache (64 bytes @ 0x1FFFF040) -- Read from C cache (1 bytes @ 0x1FFFF049) - Data: 00  returns 0x01 (0001ms, 0899ms total)
T3D88 007:499 JLINK_ReadMemEx(0x40037000, 0x0004 Bytes, ..., Flags = 0x02000004) -- CPU_ReadMem(4 bytes @ 0x40037000) - Data: AA AA AA AA  returns 0xFFFFFFFF (0001ms, 0900ms total)
T3D88 007:500 JLINK_ReadMemEx(0x40037100, 0x0004 Bytes, ..., Flags = 0x02000004) -- CPU_ReadMem(4 bytes @ 0x40037100) - Data: AA AA AA AA  returns 0xFFFFFFFF (0001ms, 0901ms total)
T3D88 007:502 JLINK_ReadMemEx(0x40037104, 0x0004 Bytes, ..., Flags = 0x02000004) -- CPU_ReadMem(4 bytes @ 0x40037104) - Data: AA AA AA AA  returns 0xFFFFFFFF (0001ms, 0903ms total)
T3D88 007:503 JLINK_ReadMemEx(0x40037108, 0x0004 Bytes, ..., Flags = 0x02000004) -- CPU_ReadMem(4 bytes @ 0x40037108) - Data: AA AA AA AA  returns 0xFFFFFFFF (0001ms, 0904ms total)
T3D88 007:504 JLINK_ReadMemEx(0x4003710C, 0x0004 Bytes, ..., Flags = 0x02000004) -- CPU_ReadMem(4 bytes @ 0x4003710C) - Data: AA AA AA AA  returns 0xFFFFFFFF (0001ms, 0905ms total)
T3D88 007:505 JLINK_ReadMemEx(0x40037110, 0x0004 Bytes, ..., Flags = 0x02000004) -- CPU_ReadMem(4 bytes @ 0x40037110) - Data: AA AA AA AA  returns 0xFFFFFFFF (0001ms, 0906ms total)
T3D88 007:506 JLINK_ReadMemEx(0x40037114, 0x0004 Bytes, ..., Flags = 0x02000004) -- CPU_ReadMem(4 bytes @ 0x40037114) - Data: AA AA AA AA  returns 0xFFFFFFFF (0001ms, 0907ms total)
T3D88 007:507 JLINK_ReadMemEx(0x40037118, 0x0004 Bytes, ..., Flags = 0x02000004) -- CPU_ReadMem(4 bytes @ 0x40037118) - Data: AA AA AA AA  returns 0xFFFFFFFF (0001ms, 0908ms total)
T3D88 007:508 JLINK_ReadMemEx(0x4003711C, 0x0004 Bytes, ..., Flags = 0x02000004) -- CPU_ReadMem(4 bytes @ 0x4003711C) - Data: AA AA AA AA  returns 0xFFFFFFFF (0001ms, 0909ms total)
T3D88 007:510 JLINK_ReadMemEx(0x40048000, 0x0024 Bytes, ..., Flags = 0x02000004) -- CPU_ReadMem(36 bytes @ 0x40048000) - Data: 00 04 28 06 0E 00 00 00 00 00 00 00 00 00 00 00 ...  returns 0x24 (0001ms, 0910ms total)
T3D88 007:511 JLINK_ReadMemEx(0x40048004, 0x0020 Bytes, ..., Flags = 0x02000004) -- CPU_ReadMem(32 bytes @ 0x40048004) - Data: 0E 00 00 00 00 00 00 00 00 00 00 00 00 00 00 00 ...  returns 0x20 (0001ms, 0911ms total)
T3D88 007:512 JLINK_ReadMemEx(0x40048008, 0x001C Bytes, ..., Flags = 0x02000004) -- CPU_ReadMem(28 bytes @ 0x40048008) - Data: 00 00 00 00 00 00 00 00 00 00 00 00 00 30 00 00 ...  returns 0x1C (0001ms, 0912ms total)
T3D88 007:513 JLINK_ReadMemEx(0x4004800C, 0x0018 Bytes, ..., Flags = 0x02000004) -- CPU_ReadMem(24 bytes @ 0x4004800C) - Data: 00 00 00 00 00 00 00 00 00 30 00 00 33 45 37 39 ...  returns 0x18 (0001ms, 0913ms total)
T3D88 007:514 JLINK_ReadMemEx(0x40048010, 0x0014 Bytes, ..., Flags = 0x02000004) -- CPU_ReadMem(20 bytes @ 0x40048010) - Data: 00 00 00 00 00 30 00 00 33 45 37 39 16 08 2E 00 ...  returns 0x14 (0001ms, 0914ms total)
T3D88 007:515 JLINK_ReadMemEx(0x40048024, 0x0004 Bytes, ..., Flags = 0x02000004) -- CPU_ReadMem(4 bytes @ 0x40048024) - Data: 00 00 10 01  returns 0x04 (0001ms, 0915ms total)
T3D88 007:517 JLINK_ReadMemEx(0x4003A000, 0x000C Bytes, ..., Flags = 0x02000004) -- CPU_ReadMem(12 bytes @ 0x4003A000) - Data: AA AA AA AA AA AA AA AA AA AA AA AA  returns 0xFFFFFFFF (0001ms, 0916ms total)
T3D88 007:518 JLINK_ReadMemEx(0x4003A004, 0x0008 Bytes, ..., Flags = 0x02000004) -- CPU_ReadMem(8 bytes @ 0x4003A004) - Data: AA AA AA AA AA AA AA AA  returns 0xFFFFFFFF (0001ms, 0917ms total)
T3D88 007:519 JLINK_ReadMemEx(0x4003A00C, 0x0004 Bytes, ..., Flags = 0x02000004) -- CPU_ReadMem(4 bytes @ 0x4003A00C) - Data: AA AA AA AA  returns 0xFFFFFFFF (0001ms, 0918ms total)
T3D88 007:520 JLINK_ReadMemEx(0x4003A010, 0x0004 Bytes, ..., Flags = 0x02000004) -- CPU_ReadMem(4 bytes @ 0x4003A010) - Data: AA AA AA AA  returns 0xFFFFFFFF (0001ms, 0919ms total)
T3D88 007:521 JLINK_ReadMemEx(0x4003A014, 0x0004 Bytes, ..., Flags = 0x02000004) -- CPU_ReadMem(4 bytes @ 0x4003A014) - Data: AA AA AA AA  returns 0xFFFFFFFF (0002ms, 0921ms total)
T3D88 007:523 JLINK_ReadMemEx(0x4003A018, 0x0004 Bytes, ..., Flags = 0x02000004) -- CPU_ReadMem(4 bytes @ 0x4003A018) - Data: AA AA AA AA  returns 0xFFFFFFFF (0001ms, 0922ms total)
T3D88 007:524 JLINK_ReadMemEx(0x4003A01C, 0x0004 Bytes, ..., Flags = 0x02000004) -- CPU_ReadMem(4 bytes @ 0x4003A01C) - Data: AA AA AA AA  returns 0xFFFFFFFF (0001ms, 0923ms total)
T3D88 007:525 JLINK_ReadMemEx(0x4003A020, 0x0004 Bytes, ..., Flags = 0x02000004) -- CPU_ReadMem(4 bytes @ 0x4003A020) - Data: AA AA AA AA  returns 0xFFFFFFFF (0001ms, 0924ms total)
T3D88 007:526 JLINK_ReadMemEx(0x4003A024, 0x0004 Bytes, ..., Flags = 0x02000004) -- CPU_ReadMem(4 bytes @ 0x4003A024) - Data: AA AA AA AA  returns 0xFFFFFFFF (0001ms, 0925ms total)
T3D88 007:527 JLINK_ReadMemEx(0x4003A028, 0x0004 Bytes, ..., Flags = 0x02000004) -- CPU_ReadMem(4 bytes @ 0x4003A028) - Data: AA AA AA AA  returns 0xFFFFFFFF (0001ms, 0926ms total)
T3D88 007:528 JLINK_ReadMemEx(0x4003A02C, 0x0004 Bytes, ..., Flags = 0x02000004) -- CPU_ReadMem(4 bytes @ 0x4003A02C) - Data: AA AA AA AA  returns 0xFFFFFFFF (0001ms, 0927ms total)
T3D88 007:529 JLINK_ReadMemEx(0x4003A030, 0x0004 Bytes, ..., Flags = 0x02000004) -- CPU_ReadMem(4 bytes @ 0x4003A030) - Data: AA AA AA AA  returns 0xFFFFFFFF (0001ms, 0928ms total)
T3D88 007:530 JLINK_ReadMemEx(0x4003A034, 0x0004 Bytes, ..., Flags = 0x02000004) -- CPU_ReadMem(4 bytes @ 0x4003A034) - Data: AA AA AA AA  returns 0xFFFFFFFF (0001ms, 0929ms total)
T3D88 007:531 JLINK_ReadMemEx(0x4003A038, 0x0004 Bytes, ..., Flags = 0x02000004) -- CPU_ReadMem(4 bytes @ 0x4003A038) - Data: AA AA AA AA  returns 0xFFFFFFFF (0001ms, 0930ms total)
T3D88 007:532 JLINK_ReadMemEx(0x4003A04C, 0x0030 Bytes, ..., Flags = 0x02000004) -- CPU_ReadMem(48 bytes @ 0x4003A04C) - Data: AA AA AA AA AA AA AA AA AA AA AA AA AA AA AA AA ...  returns 0xFFFFFFFF (0001ms, 0931ms total)
T3D88 007:533 JLINK_ReadMemEx(0x4003A050, 0x002C Bytes, ..., Flags = 0x02000004) -- CPU_ReadMem(44 bytes @ 0x4003A050) - Data: AA AA AA AA AA AA AA AA AA AA AA AA AA AA AA AA ...  returns 0xFFFFFFFF (0002ms, 0933ms total)
T3D88 007:535 JLINK_ReadMemEx(0x4003A054, 0x0028 Bytes, ..., Flags = 0x02000004) -- CPU_ReadMem(40 bytes @ 0x4003A054) - Data: AA AA AA AA AA AA AA AA AA AA AA AA AA AA AA AA ...  returns 0xFFFFFFFF (0001ms, 0934ms total)
T3D88 007:536 JLINK_ReadMemEx(0x4003A058, 0x0024 Bytes, ..., Flags = 0x02000004) -- CPU_ReadMem(36 bytes @ 0x4003A058) - Data: AA AA AA AA AA AA AA AA AA AA AA AA AA AA AA AA ...  returns 0xFFFFFFFF (0001ms, 0935ms total)
T3D88 007:537 JLINK_ReadMemEx(0x4003A05C, 0x0020 Bytes, ..., Flags = 0x02000004) -- CPU_ReadMem(32 bytes @ 0x4003A05C) - Data: AA AA AA AA AA AA AA AA AA AA AA AA AA AA AA AA ...  returns 0xFFFFFFFF (0001ms, 0936ms total)
T3D88 007:538 JLINK_ReadMemEx(0x4003A060, 0x001C Bytes, ..., Flags = 0x02000004) -- CPU_ReadMem(28 bytes @ 0x4003A060) - Data: AA AA AA AA AA AA AA AA AA AA AA AA AA AA AA AA ...  returns 0xFFFFFFFF (0001ms, 0937ms total)
T3D88 007:539 JLINK_ReadMemEx(0x4003A064, 0x0018 Bytes, ..., Flags = 0x02000004) -- CPU_ReadMem(24 bytes @ 0x4003A064) - Data: AA AA AA AA AA AA AA AA AA AA AA AA AA AA AA AA ...  returns 0xFFFFFFFF (0001ms, 0938ms total)
T3D88 007:540 JLINK_ReadMemEx(0x4003A07C, 0x0004 Bytes, ..., Flags = 0x02000004) -- CPU_ReadMem(4 bytes @ 0x4003A07C) - Data: AA AA AA AA  returns 0xFFFFFFFF (0001ms, 0939ms total)
T3D88 007:541 JLINK_ReadMemEx(0x4003A084, 0x0014 Bytes, ..., Flags = 0x02000004) -- CPU_ReadMem(20 bytes @ 0x4003A084) - Data: AA AA AA AA AA AA AA AA AA AA AA AA AA AA AA AA ...  returns 0xFFFFFFFF (0001ms, 0940ms total)
T3D88 007:542 JLINK_ReadMemEx(0x4003A088, 0x0010 Bytes, ..., Flags = 0x02000004) -- CPU_ReadMem(16 bytes @ 0x4003A088) - Data: AA AA AA AA AA AA AA AA AA AA AA AA AA AA AA AA  returns 0xFFFFFFFF (0001ms, 0941ms total)
T3D88 007:543 JLINK_ReadMemEx(0x4003A08C, 0x000C Bytes, ..., Flags = 0x02000004) -- CPU_ReadMem(12 bytes @ 0x4003A08C) - Data: AA AA AA AA AA AA AA AA AA AA AA AA  returns 0xFFFFFFFF (0001ms, 0942ms total)
T3D88 007:544 JLINK_ReadMemEx(0x4003A098, 0x0004 Bytes, ..., Flags = 0x02000004) -- CPU_ReadMem(4 bytes @ 0x4003A098) - Data: AA AA AA AA  returns 0xFFFFFFFF (0001ms, 0943ms total)
T3D88 007:546 JLINK_ReadMemEx(0x40038000, 0x000C Bytes, ..., Flags = 0x02000004) -- CPU_ReadMem(12 bytes @ 0x40038000) - Data: AA AA AA AA AA AA AA AA AA AA AA AA  returns 0xFFFFFFFF (0001ms, 0944ms total)
T3D88 007:547 JLINK_ReadMemEx(0x40038004, 0x0008 Bytes, ..., Flags = 0x02000004) -- CPU_ReadMem(8 bytes @ 0x40038004) - Data: AA AA AA AA AA AA AA AA  returns 0xFFFFFFFF (0001ms, 0945ms total)
T3D88 007:548 JLINK_ReadMemEx(0x4003800C, 0x0004 Bytes, ..., Flags = 0x02000004) -- CPU_ReadMem(4 bytes @ 0x4003800C) - Data: AA AA AA AA  returns 0xFFFFFFFF (0001ms, 0946ms total)
T3D88 007:549 JLINK_ReadMemEx(0x40038010, 0x0004 Bytes, ..., Flags = 0x02000004) -- CPU_ReadMem(4 bytes @ 0x40038010) - Data: AA AA AA AA  returns 0xFFFFFFFF (0001ms, 0947ms total)
T3D88 007:551 JLINK_ReadMemEx(0x40038014, 0x0004 Bytes, ..., Flags = 0x02000004) -- CPU_ReadMem(4 bytes @ 0x40038014) - Data: AA AA AA AA  returns 0xFFFFFFFF (0001ms, 0948ms total)
T3D88 007:552 JLINK_ReadMemEx(0x40038018, 0x0004 Bytes, ..., Flags = 0x02000004) -- CPU_ReadMem(4 bytes @ 0x40038018) - Data: AA AA AA AA  returns 0xFFFFFFFF (0001ms, 0949ms total)
T3D88 007:553 JLINK_ReadMemEx(0x4003806C, 0x0004 Bytes, ..., Flags = 0x02000004) -- CPU_ReadMem(4 bytes @ 0x4003806C) - Data: AA AA AA AA  returns 0xFFFFFFFF (0001ms, 0950ms total)
T3D88 007:561 JLINK_ReadMemEx(0x00003DD0, 0x003C Bytes, ..., Flags = 0x02000000) -- CPU_ReadMem(128 bytes @ 0x00003DC0) -- Updating C cache (128 bytes @ 0x00003DC0) -- Read from C cache (60 bytes @ 0x00003DD0) - Data: FF F7 F4 FC 07 48 40 69 80 21 88 43 05 49 48 61 ...  returns 0x3C (0002ms, 0952ms total)
T3D88 007:563 JLINK_ReadMemEx(0x00003E0C, 0x003C Bytes, ..., Flags = 0x02000000) -- Read from flash cache (60 bytes @ 0x00003E0C) - Data: 19 46 02 20 FD F7 E0 FB 00 23 22 46 01 21 02 20 ...  returns 0x3C (0000ms, 0952ms total)
T3D88 007:563 JLINK_ReadMemEx(0x00003E48, 0x003C Bytes, ..., Flags = 0x02000000) -- Read from flash cache (60 bytes @ 0x00003E48) - Data: 02 D0 01 29 0C D1 05 E0 06 48 40 69 80 22 10 40 ...  returns 0x3C (0000ms, 0952ms total)
T3D88 007:564 JLINK_ReadMemEx(0x00003E84, 0x003C Bytes, ..., Flags = 0x02000000) -- Read from flash cache (60 bytes @ 0x00003E84) - Data: 80 68 08 22 10 40 70 47 04 48 80 68 08 22 10 40 ...  returns 0x3C (0000ms, 0952ms total)
T3D88 007:564 JLINK_ReadMemEx(0x00003EC0, 0x003C Bytes, ..., Flags = 0x02000000) -- Read from flash cache (60 bytes @ 0x00003EC0) -- Merging zombie BP[0]: 0xB086 @ 0x00003ED0 - Data: 00 20 01 49 08 70 70 47 18 F0 FF 1F 1B F0 FF 1F ...  returns 0x3C (0000ms, 0952ms total)
T3B18 010:540 JLINK_ReadMemEx(0x00003ED0, 0x0002 Bytes, ..., Flags = 0x02000000) -- Merging zombie BP[0]: 0xB086 @ 0x00003ED0 -- Merging zombie BP[0]: 0xB086 @ 0x00003ED0 - Data: 86 B0  returns 0x02 (0000ms, 0952ms total)
T3B18 010:540 JLINK_SetBPEx(Addr = 0x00001C7C, Type = 0xFFFFFFF2)  returns 0x00000005 (0001ms, 0953ms total)
T3B18 010:541 JLINK_SetBPEx(Addr = 0x00001CE8, Type = 0xFFFFFFF2)  returns 0x00000006 (0000ms, 0953ms total)
T3B18 010:541 JLINK_SetBPEx(Addr = 0x00003FDE, Type = 0xFFFFFFF2)  returns 0x00000007 (0001ms, 0954ms total)
T3B18 010:542 JLINK_Go() -- Merging zombie BP[0]: 0xB086 @ 0x00003ED0 -- Merging zombie BP[0]: 0xB086 @ 0x00003ED0 -- CPU_ReadMem(4 bytes @ 0xE0001004) -- Simulated -- Read from flash cache (2 bytes @ 0x00003ED2) -- Simulated -- Read from flash cache (2 bytes @ 0x00003ED4) -- Simulated -- Read from flash cache (2 bytes @ 0x00003ED6) -- Read from flash cache (2 bytes @ 0x00003ED8) -- Simulated -- CPU_ReadMem(64 bytes @ 0x00002940) -- Updating C cache (64 bytes @ 0x00002940)
 -- Read from C cache (2 bytes @ 0x0000294C) -- CPU_WriteMem(16 bytes @ 0x1FFFF488) -- Simulated -- Read from C cache (2 bytes @ 0x0000294E) -- Simulated -- Read from C cache (2 bytes @ 0x00002950) -- Simulated -- Read from C cache (2 bytes @ 0x00002952) -- Read from C cache (2 bytes @ 0x00002954) -- Simulated -- CPU_ReadMem(64 bytes @ 0x00003B40) -- Updating C cache (64 bytes @ 0x00003B40) -- Read from C cache (2 bytes @ 0x00003B66) -- CPU_WriteMem(8 bytes @ 0x1FFFF480) -- Simulated
 -- Read from C cache (2 bytes @ 0x00003B68) -- Simulated -- Start of preparing flash programming -- Calculating RAM usage -- RAM usage = 5136 Bytes -- Preserving CPU registers -- Preparing memory -- Determining CPU clock frequency -- CPU frequency = 48043 kHz -- CPU frequency = 48043 kHz -- Preparing target -- Preserving target RAM temporarily used for programming -- Downloading RAMCode -- Not first flash download, checking target RAM skipped -- Preparing RAMCode -- End of preparing flash programming
 -- Read from flash cache (512 bytes @ 0x00003E00) -- Programming range 0x00003E00 - 0x00003FFF (001 Sector, 512 Bytes) -- Start of restoring -- Restoring RAMCode -- Restoring target memory -- Restore target -- Restore memory -- Restoring CPU registers -- End of restoring -- CPU_WriteMem(4 bytes @ 0xE0002000) -- CPU_WriteMem(4 bytes @ 0xE0002000) -- CPU_ReadMem(4 bytes @ 0xE0001000) -- CPU_WriteMem(4 bytes @ 0xE0001000) -- CPU_WriteMem(4 bytes @ 0xE0002008) -- CPU_WriteMem(4 bytes @ 0xE000200C)
 (0171ms, 1125ms total)
T3B18 010:814 JLINK_IsHalted()  returns FALSE (0001ms, 1126ms total)
T3B18 010:916 JLINK_IsHalted()  returns TRUE (0002ms, 1127ms total)
T3B18 010:918 JLINK_Halt()  returns 0x00 (0001ms, 1126ms total)
T3B18 010:919 JLINK_IsHalted()  returns TRUE (0000ms, 1126ms total)
T3B18 010:919 JLINK_IsHalted()  returns TRUE (0000ms, 1126ms total)
T3B18 010:919 JLINK_IsHalted()  returns TRUE (0000ms, 1126ms total)
T3B18 010:919 JLINK_ReadReg(R15 (PC))  returns 0x00003FDE (0001ms, 1127ms total)
T3B18 010:920 JLINK_ReadReg(XPSR)  returns 0x01000000 (0000ms, 1127ms total)
T3B18 010:920 JLINK_ClrBPEx(BPHandle = 0x00000005)  returns 0x00 (0000ms, 1127ms total)
T3B18 010:920 JLINK_ClrBPEx(BPHandle = 0x00000006)  returns 0x00 (0000ms, 1127ms total)
T3B18 010:920 JLINK_ClrBPEx(BPHandle = 0x00000007)  returns 0x00 (0001ms, 1128ms total)
T3B18 010:921 JLINK_ReadMemU32(0xE000ED30, 0x0001 Items, ...) -- CPU_ReadMem(4 bytes @ 0xE000ED30) - Data: 03 00 00 00  returns 0x01 (0001ms, 1129ms total)
T3B18 010:922 JLINK_ReadMemU32(0xE0001028, 0x0001 Items, ...) -- CPU_ReadMem(4 bytes @ 0xE0001028) - Data: 00 00 00 00  returns 0x01 (0001ms, 1130ms total)
T3B18 010:923 JLINK_ReadMemU32(0xE0001038, 0x0001 Items, ...) -- CPU_ReadMem(4 bytes @ 0xE0001038) - Data: 00 00 00 00  returns 0x01 (0001ms, 1131ms total)
T3B18 010:924 JLINK_ReadReg(R0)  returns 0x00000000 (0000ms, 1131ms total)
T3B18 010:924 JLINK_ReadReg(R1)  returns 0x00000001 (0000ms, 1131ms total)
T3B18 010:924 JLINK_ReadReg(R2)  returns 0x00000003 (0001ms, 1132ms total)
T3B18 010:925 JLINK_ReadReg(R3)  returns 0x40037100 (0000ms, 1132ms total)
T3B18 010:925 JLINK_ReadReg(R4)  returns 0x00000000 (0000ms, 1132ms total)
T3B18 010:925 JLINK_ReadReg(R5)  returns 0x3FF00000 (0000ms, 1132ms total)
T3B18 010:925 JLINK_ReadReg(R6)  returns 0x00000000 (0001ms, 1133ms total)
T3B18 010:926 JLINK_ReadReg(R7)  returns 0x00000000 (0000ms, 1133ms total)
T3B18 010:926 JLINK_ReadReg(R8)  returns 0x00000000 (0000ms, 1133ms total)
T3B18 010:926 JLINK_ReadReg(R9)  returns 0x1FFFF1A8 (0001ms, 1134ms total)
T3B18 010:927 JLINK_ReadReg(R10)  returns 0x00005058 (0000ms, 1134ms total)
T3B18 010:927 JLINK_ReadReg(R11)  returns 0x00005058 (0000ms, 1134ms total)
T3B18 010:927 JLINK_ReadReg(R12)  returns 0x00000000 (0001ms, 1135ms total)
T3B18 010:928 JLINK_ReadReg(R13 (SP))  returns 0x1FFFF498 (0000ms, 1135ms total)
T3B18 010:928 JLINK_ReadReg(R14)  returns 0x00004273 (0000ms, 1135ms total)
T3B18 010:928 JLINK_ReadReg(R15 (PC))  returns 0x00003FDE (0000ms, 1135ms total)
T3B18 010:929 JLINK_ReadReg(XPSR)  returns 0x01000000 (0000ms, 1136ms total)
T3B18 010:929 JLINK_ReadReg(MSP)  returns 0x1FFFF498 (0000ms, 1136ms total)
T3B18 010:929 JLINK_ReadReg(PSP)  returns 0x20000000 (0000ms, 1136ms total)
T3B18 010:930 JLINK_ReadReg(CFBP)  returns 0x00000000 (0000ms, 1137ms total)
T3D88 010:932 JLINK_ReadMemEx(0x1FFFF01B, 0x0008 Bytes, ..., Flags = 0x02000000) -- CPU_ReadMem(64 bytes @ 0x1FFFF000) -- Updating C cache (64 bytes @ 0x1FFFF000) -- Read from C cache (8 bytes @ 0x1FFFF01B) - Data: FF 00 00 00 00 00 00 00  returns 0x08 (0002ms, 1139ms total)
T3D88 010:937 JLINK_ReadMemEx(0x1FFFF049, 0x0001 Bytes, ..., Flags = 0x02000000) -- CPU_ReadMem(64 bytes @ 0x1FFFF040) -- Updating C cache (64 bytes @ 0x1FFFF040) -- Read from C cache (1 bytes @ 0x1FFFF049) - Data: 01  returns 0x01 (0002ms, 1141ms total)
T3D88 010:941 JLINK_ReadMemEx(0x40037000, 0x0004 Bytes, ..., Flags = 0x02000004) -- CPU_ReadMem(4 bytes @ 0x40037000) - Data: 00 00 00 00  returns 0x04 (0001ms, 1142ms total)
T3D88 010:942 JLINK_ReadMemEx(0x40037100, 0x0004 Bytes, ..., Flags = 0x02000004) -- CPU_ReadMem(4 bytes @ 0x40037100) - Data: E0 2E 00 00  returns 0x04 (0001ms, 1143ms total)
T3D88 010:943 JLINK_ReadMemEx(0x40037104, 0x0004 Bytes, ..., Flags = 0x02000004) -- CPU_ReadMem(4 bytes @ 0x40037104) - Data: EB 10 00 00  returns 0x04 (0001ms, 1144ms total)
T3D88 010:944 JLINK_ReadMemEx(0x40037108, 0x0004 Bytes, ..., Flags = 0x02000004) -- CPU_ReadMem(4 bytes @ 0x40037108) - Data: 03 00 00 00  returns 0x04 (0001ms, 1145ms total)
T3D88 010:945 JLINK_ReadMemEx(0x4003710C, 0x0004 Bytes, ..., Flags = 0x02000004) -- CPU_ReadMem(4 bytes @ 0x4003710C) - Data: 01 00 00 00  returns 0x04 (0001ms, 1146ms total)
T3D88 010:946 JLINK_ReadMemEx(0x40037110, 0x0004 Bytes, ..., Flags = 0x02000004) -- CPU_ReadMem(4 bytes @ 0x40037110) - Data: 00 00 00 00  returns 0x04 (0001ms, 1147ms total)
T3D88 010:947 JLINK_ReadMemEx(0x40037114, 0x0004 Bytes, ..., Flags = 0x02000004) -- CPU_ReadMem(4 bytes @ 0x40037114) - Data: 00 00 00 00  returns 0x04 (0001ms, 1148ms total)
T3D88 010:948 JLINK_ReadMemEx(0x40037118, 0x0004 Bytes, ..., Flags = 0x02000004) -- CPU_ReadMem(4 bytes @ 0x40037118) - Data: 00 00 00 00  returns 0x04 (0001ms, 1149ms total)
T3D88 010:949 JLINK_ReadMemEx(0x4003711C, 0x0004 Bytes, ..., Flags = 0x02000004) -- CPU_ReadMem(4 bytes @ 0x4003711C) - Data: 00 00 00 00  returns 0x04 (0001ms, 1150ms total)
T3D88 011:097 JLINK_ReadMemEx(0x40048000, 0x0024 Bytes, ..., Flags = 0x02000004) -- CPU_ReadMem(36 bytes @ 0x40048000) - Data: 00 04 28 06 0E 00 00 00 00 00 00 00 00 00 00 00 ...  returns 0x24 (0001ms, 1151ms total)
T3D88 011:098 JLINK_ReadMemEx(0x40048004, 0x0020 Bytes, ..., Flags = 0x02000004) -- CPU_ReadMem(32 bytes @ 0x40048004) - Data: 0E 00 00 00 00 00 00 00 00 00 00 00 A5 00 00 00 ...  returns 0x20 (0001ms, 1152ms total)
T3D88 011:099 JLINK_ReadMemEx(0x40048008, 0x001C Bytes, ..., Flags = 0x02000004) -- CPU_ReadMem(28 bytes @ 0x40048008) - Data: 00 00 00 00 00 00 00 00 A5 00 00 00 E2 30 00 21 ...  returns 0x1C (0002ms, 1154ms total)
T3D88 011:101 JLINK_ReadMemEx(0x4004800C, 0x0018 Bytes, ..., Flags = 0x02000004) -- CPU_ReadMem(24 bytes @ 0x4004800C) - Data: 00 00 00 00 A5 00 00 00 E2 30 00 21 33 45 37 39 ...  returns 0x18 (0001ms, 1155ms total)
T3D88 011:102 JLINK_ReadMemEx(0x40048010, 0x0014 Bytes, ..., Flags = 0x02000004) -- CPU_ReadMem(20 bytes @ 0x40048010) - Data: A5 00 00 00 E2 30 00 21 33 45 37 39 16 08 2E 00 ...  returns 0x14 (0001ms, 1156ms total)
T3D88 011:103 JLINK_ReadMemEx(0x40048024, 0x0004 Bytes, ..., Flags = 0x02000004) -- CPU_ReadMem(4 bytes @ 0x40048024) - Data: 00 00 10 01  returns 0x04 (0001ms, 1157ms total)
T3D88 011:106 JLINK_ReadMemEx(0x4003A000, 0x000C Bytes, ..., Flags = 0x02000004) -- CPU_ReadMem(12 bytes @ 0x4003A000) - Data: 8C 00 00 00 54 00 00 00 96 00 00 00  returns 0x0C (0001ms, 1158ms total)
T3D88 011:107 JLINK_ReadMemEx(0x4003A004, 0x0008 Bytes, ..., Flags = 0x02000004) -- CPU_ReadMem(8 bytes @ 0x4003A004) - Data: 54 00 00 00 96 00 00 00  returns 0x08 (0001ms, 1159ms total)
T3D88 011:108 JLINK_ReadMemEx(0x4003A00C, 0x0004 Bytes, ..., Flags = 0x02000004) -- CPU_ReadMem(4 bytes @ 0x4003A00C) - Data: 28 00 00 00  returns 0x04 (0001ms, 1160ms total)
T3D88 011:109 JLINK_ReadMemEx(0x4003A010, 0x0004 Bytes, ..., Flags = 0x02000004) -- CPU_ReadMem(4 bytes @ 0x4003A010) - Data: 00 00 00 00  returns 0x04 (0001ms, 1161ms total)
T3D88 011:110 JLINK_ReadMemEx(0x4003A014, 0x0004 Bytes, ..., Flags = 0x02000004) -- CPU_ReadMem(4 bytes @ 0x4003A014) - Data: 28 00 00 00  returns 0x04 (0001ms, 1162ms total)
T3D88 011:111 JLINK_ReadMemEx(0x4003A018, 0x0004 Bytes, ..., Flags = 0x02000004) -- CPU_ReadMem(4 bytes @ 0x4003A018) - Data: 00 00 00 00  returns 0x04 (0000ms, 1162ms total)
